!De-embed:   ON
# GHz S RI R 50
! S-Parameters data
! Freq   reS11   imS11   reS12   imS12   reS13   imS13   reS14   imS14
!        reS21   imS21   reS22   imS22   reS23   imS23   reS24   imS24
!        reS31   imS31   reS32   imS32   reS33   imS33   reS34   imS34
!        reS41   imS41   reS42   imS42   reS43   imS43   reS44   imS44
!     
0.1000000000                    -0.0009636885          -0.0191880562           0.0048387570           0.0193262906           0.9739273366          -0.1859449743           0.0223509248           0.1076388398
                                 0.0048832226           0.0192577413          -0.0011366891          -0.0197813694           0.0221723799           0.1075707612           0.9725728874          -0.1893547390
                                 0.9735510511          -0.1855879469           0.0221744117           0.1075752460          -0.0033229822          -0.0187696350           0.0050244936           0.0189835207
                                 0.0223335115           0.1075912012           0.9724074931          -0.1895053384           0.0050467975           0.0189696661          -0.0031832572          -0.0197668672
0.1050000000                    -0.0013001673          -0.0199343843           0.0054334406           0.0202038167           0.9716197501          -0.1943935101           0.0244684357           0.1126786519
                                 0.0054776146           0.0201478246          -0.0016700425          -0.0211011347           0.0242641421           0.1126023737           0.9700701142          -0.1982281712
                                 0.9711045161          -0.1944577891           0.0242739241           0.1126091233          -0.0038688327          -0.0191948069           0.0055464165           0.0198742717
                                 0.0244379575           0.1126246132           0.9698142570          -0.1983810045           0.0055269939           0.0198409695          -0.0037891378          -0.0204774126
0.1100000000                    -0.0015525357          -0.0202827182           0.0059402648           0.0211050890           0.9687387716          -0.2036554715           0.0267203435           0.1176534969
                                 0.0059761543           0.0210261397          -0.0020085105          -0.0217179610           0.0265027714           0.1175468723           0.9673464635          -0.2073545665
                                 0.9684170207          -0.2032335745           0.0264861148           0.1176076111          -0.0043146969          -0.0200862101           0.0061717769           0.0206987608
                                 0.0266859155           0.1175886035           0.9670196119          -0.2076499020           0.0061487227           0.0206623218          -0.0042619653          -0.0215992783
0.1150000000                    -0.0018323191          -0.0215457658           0.0066411824           0.0219654089           0.9662075825          -0.2122741495           0.0290431089           0.1225893144
                                 0.0066460113           0.0219314834          -0.0023630976          -0.0228029570           0.0288022822           0.1225301592           0.9646879366          -0.2163991195
                                 0.9658260908          -0.2120791882           0.0288009172           0.1225455122          -0.0045128555          -0.0205840171           0.0067450424           0.0215038525
                                 0.0289898334           0.1225343650           0.9643740044          -0.2162391976           0.0067434672           0.0215410734          -0.0051160779          -0.0225152762
0.1200000000                    -0.0019756436          -0.0226033292           0.0072493084           0.0228096543           0.9632845877          -0.2211520613           0.0314676941           0.1274577718
                                 0.0073004082           0.0228059885          -0.0030117837          -0.0235055156           0.0312082740           0.1274002582           0.9617125997          -0.2251999962
                                 0.9628413345          -0.2208209275           0.0312083820           0.1274257707          -0.0045482721          -0.0211376046           0.0073864428           0.0224117075
                                 0.0314681418           0.1274008606           0.9612377409          -0.2254791759           0.0073739664           0.0223781272          -0.0056967956          -0.0235985301
0.1250000000                    -0.0024247850          -0.0234373043           0.0079511908           0.0237180318           0.9605727183          -0.2297687065           0.0339820618           0.1323046302
                                 0.0079874901           0.0235961838          -0.0031597947          -0.0246560603           0.0337010087           0.1322904899           0.9589141769          -0.2342398017
                                 0.9601196449          -0.2294460423           0.0337042343           0.1323013520          -0.0051329229          -0.0218305810           0.0080111486           0.0231420775
                                 0.0339701203           0.1322565078           0.9583563540          -0.2341738691           0.0079952726           0.0231349863          -0.0063891901          -0.0243092555
0.1300000000                    -0.0029880722          -0.0241410100           0.0086514178           0.0244106011           0.9575718334          -0.2384965193           0.0366000568           0.1370880416
                                 0.0086960834           0.0243792651          -0.0040165207          -0.0256970037           0.0362815230           0.1370417110           0.9558346487          -0.2431168516
                                 0.9570811017          -0.2382004491           0.0363208553           0.1370472710          -0.0060576397          -0.0226440481           0.0087193005           0.0238097533
                                 0.0365549690           0.1370200820           0.9552996418          -0.2428722938           0.0087332556           0.0238358440          -0.0074205714          -0.0251397615
0.1350000000                    -0.0037313403          -0.0246758017           0.0094578293           0.0250830326           0.9545624695          -0.2469226817           0.0392166311           0.1418038332
                                 0.0094329925           0.0251101618          -0.0046782558          -0.0271590867           0.0389616570           0.1417518999           0.9526911434          -0.2514979667
                                 0.9540870844          -0.2467297266           0.0389479432           0.1417761198          -0.0071724159          -0.0239720563           0.0095641166           0.0244628536
                                 0.0392113547           0.1417450690           0.9520588747          -0.2517254924           0.0095011106           0.0244908693          -0.0080899866          -0.0261580407
0.1400000000                    -0.0049488467          -0.0257406175           0.0102718376           0.0257318650           0.9514616365          -0.2554175770           0.0419711024           0.1464899665
                                 0.0103706435           0.0256324866          -0.0053638857          -0.0285258994           0.0417395840           0.1463959296           0.9495119792          -0.2602163311
                                 0.9509566704          -0.2552294074           0.0417407770           0.1464271958          -0.0087413116          -0.0250590180           0.0103197338           0.0250578058
                                 0.0419876614           0.1463862752           0.9487994406          -0.2604650625           0.0102692383           0.0250147932          -0.0085957029          -0.0267136708
0.1450000000                    -0.0062899437          -0.0264536154           0.0112682948           0.0263247290           0.9481856808          -0.2636992435           0.0447575693           0.1510764699
                                 0.0112880083           0.0261935482          -0.0060412453          -0.0302406178           0.0445975736           0.1509839826           0.9462190156          -0.2683146740
                                 0.9478056366          -0.2636541862           0.0446306047           0.1509699616          -0.0101983768          -0.0263191215           0.0110514932           0.0256204225
                                 0.0448714163           0.1509166036           0.9453383877          -0.2693320985           0.0110788248           0.0255480140          -0.0096749242          -0.0270678444
0.1500000000                    -0.0072322467          -0.0273252273           0.0120770441           0.0269305936           0.9450952899          -0.2721348405           0.0476466521           0.1556481881
                                 0.0121913334           0.0267830588          -0.0067855466          -0.0312770074           0.0475465321           0.1555379872           0.9429718479          -0.2768424849
                                 0.9446078289          -0.2720709125           0.0475608600           0.1555529996          -0.0115956488          -0.0273450612           0.0119318117           0.0261287523
                                 0.0478139813           0.1554896845           0.9420384897          -0.2778702110           0.0118987891           0.0260825954          -0.0106049419          -0.0278204318
0.1550000000                    -0.0075953963          -0.0278505132           0.0128173909           0.0276725224           0.9414871962          -0.2806186103           0.0507422868           0.1601275628
                                 0.0130121675           0.0275140633          -0.0074815979          -0.0316527931           0.0505614922           0.1600444244           0.9392362182          -0.2856676008
                                 0.9409793187          -0.2805105618           0.0505308180           0.1600263096          -0.0123458681          -0.0281279829           0.0127315497           0.0267805799
                                 0.0508262033           0.1599634195           0.9384329534          -0.2862962174           0.0127208741           0.0266906178          -0.0114379167          -0.0285322243
0.1600000000                    -0.0082526482          -0.0286189954           0.0136972505           0.0283267106           0.9377930561          -0.2890585367           0.0538886806           0.1645240264
                                 0.0138382658           0.0282046601          -0.0082749238          -0.0321201100           0.0536285342           0.1644506645           0.9353604278          -0.2945021501
                                 0.9373887860          -0.2887831004           0.0536117087           0.1644122883          -0.0128311479          -0.0282954723           0.0134617282           0.0273978658
                                 0.0538894359           0.1644055619           0.9348455775          -0.2943757641           0.0134458033           0.0273961958          -0.0123233082          -0.0291456959
0.1650000000                    -0.0086073200          -0.0290910681           0.0143725245           0.0290321390           0.9342230700          -0.2972881153           0.0571994336           0.1688676609
                                 0.0144650262           0.0289278722          -0.0088161586          -0.0321168359           0.0567622849           0.1688611034           0.9314159968          -0.3035724464
                                 0.9336975472          -0.2971068805           0.0567425049           0.1688266115          -0.0133729987          -0.0284943839           0.0142920320           0.0280485234
                                 0.0570323317           0.1687819922           0.9312492907          -0.3023089676           0.0142031638           0.0280631565          -0.0131475019          -0.0300318091
0.1700000000                    -0.0090624644          -0.0295900281           0.0150887454           0.0297102080           0.9304641352          -0.3055454012           0.0604354901           0.1731884656
                                 0.0152410672           0.0295632402          -0.0096917547          -0.0322031767           0.0599543706           0.1732164566           0.9277184576          -0.3115206652
                                 0.9300492818          -0.3050639172           0.0599091939           0.1731472664          -0.0137249596          -0.0287722563           0.0150921151           0.0287628385
                                 0.0602785268           0.1730765519           0.9274704128          -0.3106157333           0.0149539609           0.0287105234          -0.0139466816          -0.0309113775
0.1750000000                    -0.0093983717          -0.0300646188           0.0160381523           0.0303297811           0.9266705479          -0.3138125477           0.0636367337           0.1774920850
                                 0.0160822011           0.0302599237          -0.0105807334          -0.0325064316           0.0632554192           0.1774620657           0.9241313126          -0.3190509257
                                 0.9260985101          -0.3132921765           0.0632525351           0.1774034069          -0.0142328510          -0.0287484980           0.0157994819           0.0293661424
                                 0.0636882176           0.1772897707           0.9233900487          -0.3199064148           0.0158504105           0.0293591326          -0.0150193337          -0.0315589209
0.1800000000                    -0.0101633402          -0.0308997066           0.0168222613           0.0309094808           0.9226118771          -0.3218920592           0.0671560658           0.1815929180
                                 0.0169444558           0.0307913630          -0.0114733137          -0.0325067497           0.0666153823           0.1816347874           0.9197190732          -0.3279183419
                                 0.9221688410          -0.3214278459           0.0666320799           0.1815458148          -0.0150107956          -0.0290017491           0.0166356634           0.0298685906
                                 0.0670459897           0.1814731478           0.9193514783          -0.3276210681           0.0165697441           0.0298984495          -0.0160256016          -0.0320831941
0.1850000000                    -0.0111330514          -0.0314321842           0.0177086774           0.0314050533           0.9186082098          -0.3297190831           0.0705531661           0.1857092458
                                 0.0179078277           0.0312481174          -0.0126071247          -0.0330024438           0.0700460799           0.1857471842           0.9155505015          -0.3356305131
                                 0.9181500134          -0.3291451227           0.0700576050           0.1856422992          -0.0158550072          -0.0296496128           0.0174759182           0.0304119793
                                 0.0706089815           0.1855078768           0.9151235498          -0.3358842705           0.0175015208           0.0304690044          -0.0168350479          -0.0326434467
0.1900000000                    -0.0122167277          -0.0321557916           0.0186669302           0.0318822114           0.9145111865          -0.3375194039           0.0741409400           0.1896840869
                                 0.0188516789           0.0317452341          -0.0135440259          -0.0335251983           0.0735701506           0.1897492455           0.9111717060          -0.3437872239
                                 0.9140095952          -0.3371305433           0.0735773246           0.1896876492          -0.0166772715          -0.0301976540           0.0184801511           0.0309550786
                                 0.0740569944           0.1895524505           0.9110855790          -0.3435923345           0.0183665650           0.0310398108          -0.0175032173          -0.0332847956
0.1950000000                    -0.0134253018          -0.0329757233           0.0197536403           0.0322677607           0.9102321421          -0.3455899159           0.0778249175           0.1936369255
                                 0.0199952321           0.0321102541          -0.0146785823          -0.0342944564           0.0772170409           0.1936926402           0.9070340622          -0.3519276829
                                 0.9098634364          -0.3451221396           0.0771942941           0.1936709329          -0.0181280801          -0.0313368667           0.0195053156           0.0313092363
                                 0.0777143448           0.1934949353           0.9067024519          -0.3515579962           0.0194127906           0.0313925348          -0.0185894994          -0.0341286043
0.2000000000                    -0.0145069816          -0.0334350321           0.0209176196           0.0326607341           0.9060494676          -0.3532266750           0.0816043660           0.1974709011
                                 0.0209846832           0.0324732369          -0.0156074733          -0.0353633999           0.0808503333           0.1975620350           0.9025236312          -0.3602233291
                                 0.9056909602          -0.3528924043           0.0808781393           0.1975608363          -0.0190567705          -0.0321435645           0.0204468851           0.0318197840
                                 0.0813560702           0.1973905313           0.9025506704          -0.3591527659           0.0203641519           0.0318150218          -0.0194795840          -0.0346400212
0.2050000000                    -0.0155352870          -0.0342176645           0.0219856031           0.0330037600           0.9017271753          -0.3610321118           0.0853968538           0.2012482440
                                 0.0221405703           0.0327732678          -0.0165456787          -0.0360793381           0.0846729466           0.2013609206           0.8978690225          -0.3682446327
                                 0.9013719324          -0.3606850948           0.0846454161           0.2013702128          -0.0197171368          -0.0329876053           0.0213847062           0.0322163407
                                 0.0850871468           0.2011933207           0.8981455511          -0.3668629150           0.0213868454           0.0322556698          -0.0204140464          -0.0351213704
0.2100000000                    -0.0165867359          -0.0349347111           0.0229974502           0.0332610461           0.8973630861          -0.3685626105           0.0892211677           0.2049777593
                                 0.0232004442           0.0331928533          -0.0179939292          -0.0366742986           0.0884207745           0.2050920368           0.8933987602          -0.3759209844
                                 0.8969497177          -0.3683060566           0.0884263439           0.2050968578          -0.0211024717          -0.0335583632           0.0224762812           0.0325668568
                                 0.0888746153           0.2049408113           0.8935642955          -0.3744800886           0.0222851621           0.0325485266          -0.0214044820          -0.0357314228
0.2150000000                    -0.0175991559          -0.0354141947           0.0240714579           0.0336099496           0.8928265797          -0.3760713295           0.0930871141           0.2085957615
                                 0.0243809433           0.0335636928          -0.0189467585          -0.0371457579           0.0923051585           0.2087229315           0.8887194319          -0.3834375857
