!
!
# MHZ S RI R 50.00
!
! FREQ                  S11                         S12                         S13                         S14
!                       S21                         S22                         S23                         S24
!                       S31                         S32                         S33                         S34
!                       S41                         S42                         S43                         S44
!                  REAL      IMAG              REAL      IMAG              REAL      IMAG              REAL      IMAG              
 100.000       -0.004108   -0.027295        0.008130    0.026735        0.969015   -0.193502        0.024473    0.114218       
                0.008105    0.026726       -0.005711   -0.031200        0.024533    0.114151        0.969654   -0.193652       
                0.969087   -0.193966        0.024518    0.114080       -0.003375   -0.027303        0.008032    0.026813       
                0.024375    0.114172        0.969393   -0.193419        0.008088    0.026909       -0.005083   -0.031968       

 105.000       -0.004898   -0.028505        0.009068    0.027836        0.966068   -0.202812        0.026857    0.119486       
                0.008956    0.027871       -0.006998   -0.032948        0.026899    0.119397        0.966910   -0.202850       
                0.966375   -0.203570        0.026881    0.119348       -0.004212   -0.028429        0.008936    0.028104       
                0.026766    0.119467        0.966554   -0.202624        0.008973    0.028052       -0.005579   -0.033325       

 110.000       -0.006094   -0.029321        0.009774    0.028810        0.962750   -0.211751        0.029256    0.124689       
                0.009799    0.028874       -0.008353   -0.033866        0.029344    0.124586        0.963518   -0.211722       
                0.963703   -0.211802        0.029225    0.124551       -0.005085   -0.029614        0.009872    0.029231       
                0.029095    0.124722        0.963432   -0.211426        0.009891    0.029175       -0.006329   -0.035037       

 115.000       -0.006769   -0.030189        0.010655    0.030062        0.959644   -0.220952        0.031824    0.129797       
                0.010653    0.030047       -0.009098   -0.035253        0.031879    0.129734        0.960670   -0.220811       
                0.960193   -0.221376        0.031878    0.129733       -0.005904   -0.030609        0.010888    0.030268       
                0.031706    0.129859        0.960681   -0.220783        0.010819    0.030299       -0.007258   -0.036580       

 120.000       -0.007733   -0.031094        0.011565    0.031062        0.957368   -0.229792        0.034539    0.135099       
                0.011526    0.031017       -0.010131   -0.036248        0.034619    0.134924        0.958133   -0.230034       
                0.957778   -0.230723        0.034602    0.134856       -0.006752   -0.032000        0.011955    0.031490       
                0.034398    0.135015        0.957858   -0.229803        0.011950    0.031433       -0.007999   -0.038304       

 125.000       -0.008401   -0.031748        0.012377    0.032023        0.953979   -0.238748        0.037232    0.140105       
                0.012413    0.032165       -0.011456   -0.037354        0.037348    0.139938        0.954673   -0.238608       
                0.954064   -0.238972        0.037244    0.139982       -0.007925   -0.033073        0.012911    0.032420       
                0.037107    0.140071        0.953999   -0.238411        0.012910    0.032388       -0.009312   -0.039791       

 130.000       -0.009334   -0.032687        0.013435    0.033090        0.950360   -0.247502        0.040113    0.145063       
                0.013382    0.033157       -0.012159   -0.038690        0.040191    0.144915        0.950936   -0.247288       
                0.950685   -0.247838        0.040141    0.144883       -0.008819   -0.034181        0.014062    0.033578       
                0.039955    0.145029        0.950520   -0.247954        0.014025    0.033500       -0.010249   -0.041182       

 135.000       -0.010216   -0.033614        0.014371    0.034060        0.947380   -0.256264        0.043003    0.150025       
                0.014399    0.034163       -0.013241   -0.039844        0.043138    0.149868        0.947891   -0.256309       
                0.947589   -0.256772        0.043119    0.149866       -0.010182   -0.035043        0.015029    0.034368       
                0.042914    0.150004        0.947703   -0.256383        0.014988    0.034342       -0.011960   -0.042286       

 140.000       -0.010986   -0.034808        0.015414    0.035098        0.943364   -0.264854        0.045995    0.154745       
                0.015569    0.035185       -0.014124   -0.041044        0.046185    0.154676        0.943847   -0.265222       
                0.943769   -0.265209        0.046093    0.154657       -0.011406   -0.035854        0.016111    0.035208       
                0.045931    0.154863        0.943804   -0.264736        0.016107    0.035220       -0.013506   -0.043575       

 145.000       -0.012133   -0.035802        0.016572    0.036063        0.939610   -0.273110        0.049201    0.159588       
                0.016597    0.036036       -0.014953   -0.042491        0.049262    0.159411        0.940957   -0.273368       
                0.939871   -0.273763        0.049229    0.159382       -0.012386   -0.036783        0.017199    0.036065       
                0.048984    0.159632        0.940589   -0.273574        0.017263    0.036146       -0.015050   -0.044627       

 150.000       -0.012850   -0.036948        0.017720    0.036978        0.936435   -0.281307        0.052303    0.164322       
                0.017819    0.037062       -0.015984   -0.043623        0.052415    0.164164        0.937204   -0.281999       
                0.936520   -0.282067        0.052425    0.164155       -0.013811   -0.037483        0.018316    0.036843       
                0.052217    0.164387        0.936867   -0.281964        0.018262    0.036871       -0.016623   -0.045684       

 155.000       -0.014007   -0.037920        0.019102    0.037847        0.932650   -0.290595        0.055639    0.169074       
                0.019001    0.037879       -0.017020   -0.045042        0.055844    0.168819        0.933721   -0.291007       
                0.932711   -0.290808        0.055766    0.168792       -0.014856   -0.038775        0.019591    0.037773       
                0.055530    0.169087        0.932579   -0.290779        0.019593    0.037779       -0.017913   -0.046878       

 160.000       -0.015232   -0.038918        0.020138    0.038618        0.928966   -0.298800        0.058970    0.173614       
                0.020178    0.038706       -0.018237   -0.045858        0.059097    0.173514        0.929780   -0.298887       
                0.929027   -0.299176        0.059139    0.173445       -0.016475   -0.039536        0.020640    0.038439       
                0.058804    0.173701        0.929319   -0.299021        0.020572    0.038439       -0.019634   -0.047623       

 165.000       -0.016005   -0.039925        0.021520    0.039414        0.924393   -0.307427        0.062477    0.178058       
                0.021524    0.039607       -0.019328   -0.047051        0.062684    0.177896        0.925663   -0.307379       
                0.925189   -0.307909        0.062645    0.177809       -0.017431   -0.040927        0.022041    0.039270       
                0.062301    0.178118        0.924649   -0.307274        0.021988    0.039331       -0.020790   -0.048926       

 170.000       -0.017615   -0.040986        0.022699    0.040076        0.920596   -0.315561        0.066031    0.182530       
                0.022789    0.040122       -0.020695   -0.047882        0.066229    0.182326        0.921357   -0.315859       
                0.920569   -0.315731        0.066128    0.182381       -0.018642   -0.041921        0.023257    0.039997       
                0.065819    0.182594        0.921057   -0.315812        0.023194    0.040046       -0.022151   -0.049927       

 175.000       -0.018576   -0.042054        0.024190    0.040889        0.916649   -0.323450        0.069658    0.186826       
                0.024094    0.040969       -0.021704   -0.049067        0.069676    0.186695        0.917425   -0.323599       
                0.916989   -0.323963        0.069754    0.186721       -0.020113   -0.042809        0.024517    0.040688       
                0.069450    0.187051        0.916823   -0.323547        0.024255    0.040593       -0.023455   -0.050723       

 180.000       -0.020217   -0.043003        0.025535    0.041383        0.912280   -0.331951        0.073273    0.191096       
                0.025397    0.041379       -0.023364   -0.049982        0.073466    0.190919        0.912700   -0.331736       
                0.912615   -0.332457        0.073475    0.190959       -0.021264   -0.043987        0.025730    0.041330       
                0.073146    0.191181        0.912273   -0.331725        0.025762    0.041290       -0.024741   -0.051578       

 185.000       -0.021418   -0.043854        0.026834    0.042084        0.908155   -0.340124        0.077055    0.195394       
                0.026837    0.042105       -0.024792   -0.050606        0.077298    0.195122        0.908681   -0.339910       
                0.908363   -0.341019        0.077403    0.195198       -0.022763   -0.044448        0.027071    0.041954       
                0.077011    0.195463        0.908253   -0.340399        0.026825    0.041819       -0.025917   -0.052592       

 190.000       -0.022584   -0.044602        0.028183    0.042565        0.902595   -0.347995        0.080855    0.199325       
                0.028176    0.042704       -0.026496   -0.051384        0.081151    0.199017        0.903660   -0.347842       
                0.902996   -0.348566        0.081120    0.199119       -0.023764   -0.045511        0.028348    0.042569       
                0.080720    0.199456        0.903064   -0.347421        0.028314    0.042473       -0.027051   -0.053478       

 195.000       -0.024166   -0.045293        0.029329    0.042861        0.898590   -0.355751        0.084807    0.203441       
                0.029505    0.043013       -0.028357   -0.051934        0.084988    0.203128        0.899307   -0.355888       
                0.898574   -0.356227        0.084983    0.203134       -0.024897   -0.046226        0.029515    0.042969       
                0.084644    0.203505        0.898785   -0.355491        0.029630    0.043073       -0.028622   -0.054160       

 200.000       -0.025288   -0.046132        0.030924    0.043429        0.894428   -0.363340        0.088774    0.207391       
                0.030893    0.043563       -0.029761   -0.052878        0.088995    0.207102        0.894668   -0.363790       
                0.894208   -0.363965        0.088892    0.207146       -0.026074   -0.046720        0.031093    0.043565       
                0.088525    0.207482        0.894505   -0.363162        0.030858    0.043611       -0.029424   -0.055374       

 205.000       -0.026890   -0.046789        0.032127    0.043704        0.889474   -0.370624        0.092605    0.211342       
                0.032207    0.043798       -0.031729   -0.053361        0.092895    0.210874        0.889746   -0.371225       
                0.889688   -0.371457        0.092904    0.210936       -0.027421   -0.047439        0.032380    0.043960       
                0.092540    0.211333        0.889378   -0.370410        0.032257    0.043964       -0.030741   -0.056190       

 210.000       -0.028190   -0.047146        0.033619    0.044172        0.884788   -0.378325        0.096755    0.214953       
                0.033571    0.044124       -0.033260   -0.054036        0.097030    0.214779        0.885115   -0.378709       
                0.884505   -0.378892        0.097065    0.214684       -0.028657   -0.047687        0.033815    0.044388       
                0.096595    0.215034        0.884453   -0.378678        0.033545    0.044419       -0.031852   -0.057015       

 215.000       -0.029632   -0.047446        0.034812    0.044348        0.879776   -0.385214        0.100802    0.218783       
                0.034769    0.044408       -0.035346   -0.054480        0.101125    0.218335        0.880273   -0.385546       
                0.879654   -0.386318        0.101071    0.218367       -0.029736   -0.048073        0.035097    0.044744       
                0.100659    0.218719        0.880105   -0.385683        0.035000    0.044844       -0.033191   -0.057550       

 220.000       -0.030802   -0.047863        0.036063    0.044688        0.875306   -0.392425        0.104897    0.222446       
                0.036266    0.044778       -0.037163   -0.054765        0.105201    0.221912        0.876125   -0.393138       
                0.875163   -0.393375        0.105148    0.221985       -0.031302   -0.048191        0.036395    0.044901       
                0.104886    0.222416        0.875403   -0.392653        0.036235    0.044948       -0.034622   -0.058212       

 225.000       -0.032430   -0.047929        0.037451    0.044812        0.869842   -0.400216        0.109273    0.225923       
                0.037357    0.044848       -0.039098   -0.055199        0.109629    0.225365        0.870497   -0.400405       
                0.869911   -0.400912        0.109614    0.225382       -0.032485   -0.048662        0.037953    0.045259       
                0.109099    0.225920        0.869740   -0.400214        0.037972    0.045268       -0.035839   -0.058965       

 230.000       -0.033909   -0.048298        0.038771    0.045012        0.864793   -0.407164        0.113433    0.229424       
                0.038762    0.044908       -0.040932   -0.055802        0.113813    0.228857        0.865581   -0.407582       
                0.865256   -0.407971        0.113780    0.228920       -0.034128   -0.048666        0.039341    0.045177       
                0.113257    0.229447        0.865308   -0.407437        0.039186    0.045305       -0.037589   -0.059559       

 235.000       -0.035222   -0.048395        0.040092    0.045170        0.860244   -0.414829        0.117877    0.232879       
                0.040047    0.045036       -0.042713   -0.056288        0.118163    0.232393        0.860733   -0.414640       
                0.860559   -0.415547        0.118133    0.232409       -0.035717   -0.048830        0.040807    0.045299       
                0.117668    0.232814        0.860467   -0.414791        0.040628    0.045365       -0.039130   -0.060166       

 240.000       -0.036596   -0.048684        0.041403    0.045193        0.855024   -0.421819        0.122299    0.235987       
                0.041363    0.045100       -0.044566   -0.056821        0.122633    0.235508        0.855395   -0.422068       
                0.855116   -0.422293        0.122644    0.235529       -0.037190   -0.048924        0.042279    0.045260       
                0.122160    0.236193        0.854740   -0.422175        0.042130    0.045339       -0.040934   -0.060724       

 245.000       -0.037921   -0.048845        0.042629    0.045278        0.849827   -0.428887        0.126801    0.239168       
                0.042693    0.045170       -0.046253   -0.057181        0.127142    0.238779        0.850527   -0.429003       
                0.849802   -0.429482        0.127061    0.238737       -0.038707   -0.048883        0.043761    0.045262       
                0.126626    0.239303        0.849567   -0.428711        0.043582    0.045418       -0.042618   -0.061131       

 250.000       -0.039189   -0.049060        0.044099    0.045328        0.845011   -0.435604        0.131211    0.242320       
                0.044081    0.045202       -0.047817   -0.058024        0.131572    0.241881        0.845173   -0.435555       
                0.845350   -0.436269        0.131482    0.241863       -0.040159   -0.048946        0.045244    0.045238       
                0.131072    0.242533        0.844598   -0.435579        0.045035    0.045320       -0.044409   -0.061521       

 255.000       -0.040369   -0.049122        0.045462    0.045514        0.839218   -0.442186        0.135715    0.245258       
                0.045497    0.045309       -0.049310   -0.058545        0.136142    0.244665        0.839636   -0.442316       
                0.839684   -0.442725        0.136191    0.244940       -0.041704   -0.048804        0.046558    0.045146       
                0.135651    0.245454        0.839429   -0.442616        0.046480    0.045174       -0.046359   -0.061768       

 260.000       -0.041513   -0.049373        0.047060    0.045711        0.833478   -0.449009        0.140422    0.248002       
                0.046993    0.045365       -0.050399   -0.059250        0.141048    0.247566        0.833837   -0.448878       
                0.833661   -0.449944        0.141168    0.247853       -0.043210   -0.048725        0.048080    0.045052       
                0.140257    0.248132        0.833165   -0.448452        0.047945    0.045040       -0.048220   -0.062098       

 265.000       -0.042736   -0.049532        0.048369    0.045526        0.828509   -0.455348        0.145201    0.250787       
                0.048464    0.045423       -0.052146   -0.059852        0.145346    0.250312        0.828174   -0.455387       
                0.828372   -0.455978        0.145229    0.250490       -0.044504   -0.048722        0.049672    0.045006       
                0.144753    0.251020        0.827767   -0.455080        0.049611    0.045122       -0.050077   -0.062424       

 270.000       -0.043618   -0.049906        0.050086    0.045683        0.822627   -0.461841        0.149542    0.253448       
                0.050118    0.045575       -0.053136   -0.060710        0.149796    0.252915        0.822679   -0.461736       
                0.822827   -0.462723        0.150312    0.253161       -0.046429   -0.048545        0.050931    0.044673       
                0.149809    0.253733        0.822060   -0.461041        0.050688    0.044586       -0.052339   -0.062627       

 275.000       -0.045226   -0.050039        0.051799    0.045548        0.817043   -0.468550        0.154399    0.256129       
                0.051569    0.045323       -0.054453   -0.061551        0.154719    0.255637        0.817293   -0.468096       
                0.817357   -0.469311        0.154760    0.255730       -0.047678   -0.048756        0.052631    0.044532       
                0.154151    0.256223        0.816544   -0.468196        0.052417    0.044562       -0.054201   -0.063176       

 280.000       -0.046148   -0.050562        0.053284    0.045584        0.811704   -0.475186        0.159371    0.258809       
                0.053427    0.045459       -0.055602   -0.062103        0.159547    0.258177        0.811324   -0.474528       
                0.811432   -0.475783        0.159669    0.258311       -0.049314   -0.048904        0.053800    0.044107       
                0.159395    0.258848        0.811155   -0.474591        0.053798    0.044203       -0.056567   -0.063205       

 285.000       -0.047459   -0.050971        0.054997    0.045333        0.805936   -0.480750        0.163789    0.261069       
                0.055134    0.045177       -0.056902   -0.062944        0.164469    0.260581        0.805927   -0.480400       
                0.805707   -0.481570        0.164469    0.260612       -0.050622   -0.049137        0.055453    0.043962       
