# MHZ S DB R 50
! S-Parameters data
! Freq   reS11   imS11   reS12   imS12   reS13   imS13   reS14   imS14
!        reS21   imS21   reS22   imS22   reS23   imS23   reS24   imS24
!        reS31   imS31   reS32   imS32   reS33   imS33   reS34   imS34
!        reS41   imS41   reS42   imS42   reS43   imS43   reS44   imS44
!
!Freq           dBS11      angS11      dBS12      angS12      dBS13      angS13      dBS14      angS14     
!               dBS21      angS21      dBS22      angS22      dBS23      angS23      dBS24      angS24     
!               dBS31      angS31      dBS32      angS32      dBS33      angS33      dBS34      angS34     
!               dBS41      angS41      dBS42      angS42      dBS43      angS43      dBS44      angS44     
100.0000000000  -35.905761 -105.021819 -35.533672 78.787599   -0.101582  -10.107786  -19.112313 78.841461
                -35.604716 78.659298   -36.249857 -96.852722  -19.103079 78.872374   -0.086700  -10.154700
                -0.089198  -10.108749  -19.095301 78.859060   -36.046412 -101.237291 -35.487757 78.869750
                -19.098548 78.834979   -0.084986  -10.167833  -35.494882 78.814562   -36.453660 -97.113970
110.0000000000  -35.272561 -106.676376 -34.707349 77.147086   -0.116058  -11.097639  -18.309835 77.872623
                -34.791071 76.936032   -35.549643 -98.785968  -18.300500 77.896802   -0.101872  -11.154188
                -0.103787  -11.078030  -18.293408 77.910573   -35.334184 -102.826607 -34.684618 77.197858
                -18.294979 77.889111   -0.100508  -11.152347  -34.684904 77.212234   -35.846937 -99.919344
120.0000000000  -34.949784 -105.954372 -33.943821 75.632277   -0.128437  -12.076758  -17.574345 76.914324
                -34.017456 75.428656   -34.764991 -101.591714 -17.565980 76.929579   -0.115287  -12.137389
                -0.117929  -12.060118  -17.561117 76.942211   -34.552517 -103.293667 -33.916781 75.451244
                -17.560154 76.930381   -0.114280  -12.139228  -33.923212 75.345435   -35.130272 -101.737050
130.0000000000  -34.396093 -106.213895 -33.224882 73.992792   -0.142086  -13.030812  -16.902127 75.949877
                -33.312409 73.783798   -34.164026 -103.381499 -16.895302 75.988646   -0.130686  -13.113802
                -0.132464  -13.042518  -16.891647 75.966430   -33.770315 -104.721761 -33.229391 73.549110
                -16.889184 75.963466   -0.129482  -13.112259  -33.221822 73.490712   -34.488496 -102.643406
140.0000000000  -33.452716 -108.694707 -32.572563 72.463005   -0.157280  -14.001636  -16.282064 74.979434
                -32.670094 72.266627   -33.930536 -103.654211 -16.274024 75.017248   -0.144812  -14.085252
                -0.146695  -14.009652  -16.269964 75.014527   -32.876966 -107.934023 -32.608262 71.635254
                -16.269716 74.987913   -0.144336  -14.093227  -32.608925 71.460967   -33.805672 -103.086988
150.0000000000  -32.473854 -110.409537 -31.977354 70.698666   -0.175229  -14.961930  -15.710042 74.030792
                -32.069689 70.481453   -33.612721 -104.545176 -15.701292 74.060743   -0.162232  -15.052612
                -0.163220  -14.981120  -15.696420 74.055948   -32.012198 -110.401043 -32.015938 69.509007
                -15.697006 74.024329   -0.162238  -15.074088  -32.000484 69.502711   -33.171246 -103.611458
160.0000000000  -31.714636 -111.087676 -31.434163 68.671283   -0.195414  -15.912903  -15.178663 73.074159
                -31.526361 68.500907   -32.840012 -107.494916 -15.169096 73.105758   -0.181501  -16.028417
                -0.183081  -15.956006  -15.163777 73.076484   -31.460679 -110.827397 -31.433841 67.832940
                -15.165247 73.050106   -0.181759  -16.042355  -31.437391 67.829471   -32.586024 -105.299242
170.0000000000  -31.136924 -111.879968 -30.931182 66.444090   -0.212338  -16.898160  -14.675728 72.089074
                -31.039822 66.366316   -31.861611 -110.433989 -14.667105 72.134382   -0.198023  -17.003352
                -0.199072  -16.911130  -14.662096 72.103362   -31.135574 -110.661675 -30.887385 66.453416
                -14.662535 72.087643   -0.197470  -17.011733  -30.877877 66.321974   -32.077778 -107.685225
180.0000000000  -30.646052 -112.738501 -30.470785 64.613099   -0.233242  -17.867445  -14.207756 71.134164
                -30.559482 64.435797   -31.141402 -112.929088 -14.199622 71.161038   -0.218397  -17.965892
                -0.221040  -17.847887  -14.195238 71.172989   -30.837418 -111.576511 -30.406509 65.048767
                -14.195143 71.147754   -0.218099  -17.961192  -30.394550 64.926189   -31.590512 -109.902754
190.0000000000  -30.263729 -114.444563 -30.046040 63.091156   -0.256949  -18.796161  -13.770065 70.193071
                -30.132845 62.997369   -30.714802 -114.821566 -13.762664 70.247389   -0.240767  -18.908755
                -0.244126  -18.827201  -13.757958 70.193495   -30.429093 -114.036587 -29.983153 63.648163
                -13.757074 70.179315   -0.240712  -18.936571  -29.982230 63.431941   -31.203851 -111.912157
200.0000000000  -29.864887 -115.670822 -29.643166 61.773903   -0.275197  -19.747652  -13.352141 69.223884
                -29.716918 61.553276   -30.425123 -116.590374 -13.344185 69.298215   -0.258981  -19.877800
                -0.262581  -19.790541  -13.339467 69.242371   -30.036107 -116.438262 -29.595589 61.919308
                -13.338157 69.223581   -0.258407  -19.888592  -29.580409 61.893889   -30.780413 -113.418255
210.0000000000  -29.519534 -117.152643 -29.267682 60.269871   -0.295877  -20.655337  -12.957859 68.297858
                -29.333142 60.172673   -30.110872 -118.084288 -12.949913 68.374451   -0.279299  -20.801678
                -0.282496  -20.751729  -12.945571 68.279845   -29.556607 -118.759932 -29.226353 60.217471
                -12.943349 68.253735   -0.279933  -20.853929  -29.226595 60.081123   -30.372995 -115.007407
220.0000000000  -29.171302 -118.326733 -28.914273 58.715521   -0.322156  -21.546002  -12.590161 67.374267
                -28.958723 58.497654   -29.695060 -119.735196 -12.582173 67.471914   -0.306637  -21.724368
                -0.309501  -21.706414  -12.578440 67.317985   -29.164116 -120.782957 -28.899682 58.506284
                -12.576042 67.297391   -0.306838  -21.802797  -28.884969 58.443831   -29.944930 -116.995325
230.0000000000  -28.733457 -119.618026 -28.584904 56.857915   -0.344793  -22.534530  -12.238847 66.403867
                -28.627510 56.625303   -29.220772 -121.537281 -12.229904 66.471456   -0.329939  -22.693825
                -0.332523  -22.602754  -12.225482 66.424840   -28.726708 -122.635483 -28.574419 56.645443
                -12.222742 66.345865   -0.329955  -22.727180  -28.570282 56.554352   -29.457068 -118.889203
240.0000000000  -28.322157 -120.953134 -28.261836 54.952031   -0.365580  -23.516699  -11.902191 65.423457
                -28.321835 54.665248   -28.729944 -123.145528 -11.893066 65.488153   -0.351487  -23.656644
                -0.352863  -23.514374  -11.889750 65.503861   -28.302393 -124.532473 -28.293627 54.764272
                -11.887271 65.422394   -0.350800  -23.649750  -28.283384 54.609310   -28.991054 -120.813208
250.0000000000  -27.951000 -122.259943 -27.979871 53.097831   -0.390449  -24.416303  -11.583137 64.517747
                -28.057168 52.868544   -28.313803 -124.694522 -11.574362 64.585174   -0.376554  -24.568059
                -0.377659  -24.438187  -11.569736 64.579343   -27.910556 -126.335491 -28.033976 52.952079
                -11.568475 64.484370   -0.375242  -24.582825  -28.026872 52.869774   -28.563391 -122.435680
260.0000000000  -27.669368 -123.844760 -27.729749 51.517393   -0.420957  -25.325443  -11.284459 63.602724
                -27.812377 51.319089   -27.980189 -126.447120 -11.276396 63.670650   -0.407252  -25.486503
                -0.408500  -25.340210  -11.273055 63.664259   -27.614583 -128.343136 -27.792724 51.511584
                -11.270846 63.582365   -0.405758  -25.484684  -27.784835 51.266665   -28.257435 -124.291813
270.0000000000  -27.409052 -125.249105 -27.490758 49.982245   -0.448412  -26.233984  -10.996303 62.679529
                -27.565100 49.764786   -27.696153 -128.093333 -10.989682 62.772212   -0.435113  -26.410637
                -0.436663  -26.275835  -10.985976 62.732482   -27.320386 -129.984718 -27.562431 49.870440
                -10.982006 62.664349   -0.433648  -26.411943  -27.555893 49.789674   -27.942353 -125.915325
280.0000000000  -27.203210 -126.397736 -27.231711 48.357753   -0.473828  -27.148412  -10.716831 61.750136
                -27.309620 48.317884   -27.413738 -129.332112 -10.710412 61.857134   -0.460073  -27.337683
                -0.461450  -27.207294  -10.706826 61.805226   -27.063859 -131.390244 -27.324226 48.260602
                -10.703225 61.736903   -0.458846  -27.344773  -27.315769 48.187594   -27.649462 -127.279933
290.0000000000  -27.017939 -127.456865 -26.993286 46.849843   -0.499360  -28.070026  -10.448801 60.836429
                -27.073702 46.701169   -27.193381 -130.496942 -10.442185 60.932911   -0.485030  -28.257292
                -0.487017  -28.106118  -10.439559 60.914312   -26.851603 -132.609168 -27.084856 46.869579
                -10.434770 60.825365   -0.484997  -28.257101  -27.078129 46.733580   -27.429260 -128.569777
300.0000000000  -26.850431 -128.832348 -26.753894 45.467358   -0.529705  -29.009101  -10.195498 59.922730
                -26.831505 45.253064   -27.022268 -131.661540 -10.189441 60.009285   -0.515086  -29.153005
                -0.517948  -28.938914  -10.185312 60.089576   -26.664548 -133.625543 -26.843743 45.420283
                -10.181280 59.959450   -0.514445  -29.115585  -26.834844 45.237300   -27.208002 -129.856592
310.0000000000  -26.680778 -130.471994 -26.544462 43.914334   -0.561790  -29.895420  -9.954570  59.037067
                -26.611410 43.636136   -26.822435 -132.956717 -9.948129  59.112339   -0.547550  -30.056601
                -0.549436  -29.812514  -9.943374  59.224684   -26.504690 -134.775602 -26.632234 43.905887
                -9.940805  59.076091   -0.547133  -29.970865  -26.633269 43.772272   -27.019803 -131.409190
320.0000000000  -26.501905 -132.288021 -26.365680 42.281664   -0.593140  -30.708774  -9.722263  58.147272
                -26.419127 42.003952   -26.638956 -134.448072 -9.714803  58.280017   -0.578668  -30.937186
                -0.579809  -30.772821  -9.709165  58.255362   -26.312961 -136.069866 -26.451327 42.299318
                -9.707645  58.139204   -0.578201  -30.912420  -26.433709 42.164201   -26.812215 -133.160011
330.0000000000  -26.293725 -134.322166 -26.180453 40.655170   -0.621542  -31.588253  -9.496655  57.246247
                -26.251792 40.343259   -26.450092 -135.772193 -9.489500  57.400001   -0.607624  -31.835436
                -0.608386  -31.686995  -9.483670  57.338779   -26.136242 -137.275496 -26.276494 40.673300
                -9.482460  57.222474   -0.606622  -31.829495  -26.269336 40.603631   -26.598591 -135.033431
340.0000000000  -26.130279 -136.241340 -26.001966 39.138784   -0.649661  -32.447578  -9.279746  56.362741
                -26.070526 38.820866   -26.299130 -137.254476 -9.271470  56.535255   -0.637043  -32.712319
                -0.637277  -32.587087  -9.266052  56.415970   -25.984223 -138.330368 -26.096855 39.251684
                -9.265881  56.321774   -0.635534  -32.734006  -26.086356 39.140122   -26.422136 -136.857656
350.0000000000  -25.939620 -138.145068 -25.843082 37.766766   -0.679171  -33.319675  -9.071884  55.489372
                -25.898051 37.460680   -26.158308 -138.411099 -9.062390  55.670267   -0.666036  -33.583865
                -0.666731  -33.433483  -9.056708  55.586179   -25.868171 -139.332773 -25.922236 37.884564
                -9.057600  55.469314   -0.664907  -33.582302  -25.903618 37.852417   -26.256212 -138.627181
360.0000000000  -25.788800 -139.928133 -25.664700 36.460146   -0.710969  -34.197739  -8.872180  54.626659
                -25.736891 36.201682   -26.035273 -139.456146 -8.861974  54.796550   -0.697749  -34.442971
                -0.698264  -34.260761  -8.856201  54.751871   -25.729290 -140.245196 -25.744263 36.684020
                -8.858439  54.621768   -0.696750  -34.426323  -25.730943 36.612529   -26.122101 -140.288342
370.0000000000  -25.561606 -141.643848 -25.508741 34.934234   -0.743218  -35.065439  -8.680884  53.765412
                -25.580335 34.750321   -25.872674 -140.552822 -8.669815  53.920820   -0.730557  -35.312352
                -0.731286  -35.129742  -8.665067  53.875507   -25.563113 -141.092669 -25.575208 35.158790
                -8.668500  53.737771   -0.729141  -35.315251  -25.570897 35.082672   -25.925317 -141.917776
380.0000000000  -25.369965 -143.084160 -25.361710 33.360614   -0.775596  -35.976099  -8.496124  52.883599
                -25.433479 33.125815   -25.697306 -141.657917 -8.485070  53.006829   -0.762515  -36.194880
                -0.764094  -35.965333  -8.480264  53.033663   -25.366159 -141.996923 -25.427341 33.612653
                -8.484090  52.880084   -0.762664  -36.165417  -25.412966 33.489724   -25.738113 -143.323975
390.0000000000  -25.171871 -144.410048 -25.232707 31.614523   -0.807740  -36.817115  -8.317732  52.025037
                -25.284538 31.515369   -25.525585 -142.852385 -8.304933  52.157447   -0.795715  -37.048283
                -0.796307  -36.834785  -8.301433  52.154293   -25.188657 -143.003715 -25.284989 31.971405
                -8.305255  52.005994   -0.795486  -37.038351  -25.259113 31.817754   -25.565009 -144.745874
400.0000000000  -24.996060 -145.607500 -25.102879 30.208890   -0.840360  -37.650703  -8.146890  51.195481
                -25.165816 29.909932   -25.390129 -143.887517 -8.134567  51.316484   -0.828856  -37.878761
                -0.829344  -37.647287  -8.130255  51.328348   -25.023607 -144.154829 -25.162644 30.376567
                -8.134725  51.179751   -0.827651  -37.861184  -25.138052 30.182406   -25.417528 -146.097784
410.0000000000  -24.863780 -146.962197 -25.006552 28.683889   -0.873646  -38.488102  -7.980619  50.367409
                -25.068014 28.375641   -25.265848 -145.443962 -7.967720  50.477420   -0.861163  -38.715075
                -0.862414  -38.456980  -7.963829  50.529224   -24.900197 -145.577338 -25.071762 28.854374
                -7.969350  50.365790   -0.860794  -38.680079  -25.045232 28.730255   -25.287146 -147.373655
420.0000000000  -24.744561 -148.229343 -24.925303 27.195711   -0.907592  -39.304397  -7.819932  49.522125
                -24.976360 26.799413   -25.131861 -147.041175 -7.807979  49.655095   -0.896085  -39.564373
                -0.896915  -39.318206  -7.803507  49.664048   -24.780044 -146.871327 -24.989663 27.268822
                -7.808596  49.517149   -0.895033  -39.529951  -24.952410 27.122817   -25.154129 -148.582224
430.0000000000  -24.666568 -149.366806 -24.850571 25.658631   -0.942377  -40.108226  -7.666197  48.683176
                -24.888619 25.319453   -25.011136 -148.518141 -7.654430  48.848416   -0.930066  -40.407366
                -0.930486  -40.188301  -7.649455  48.791481   -24.690028 -148.440215 -24.912543 25.664719
                -7.653225  48.655280   -0.929811  -40.397102  -24.881330 25.665051   -25.044440 -149.759036
440.0000000000  -24.582728 -150.461584 -24.747024 24.261518   -0.976124  -40.849311  -7.516925  47.870711
                -24.796868 23.854981   -24.901741 -149.918074 -7.505477  48.094934   -0.964711  -41.226663
                -0.963977  -41.086075  -7.499934  47.879524   -24.616484 -149.730490 -24.816815 24.174676
                -7.503444  47.799659   -0.962627  -41.271143  -24.779886 24.254909   -24.947782 -150.760183
450.0000000000  -24.535867 -151.532389 -24.649688 23.087682   -1.009192  -41.658723  -7.370917  47.069102
                -24.700502 22.608778   -24.822694 -151.300009 -7.358980  47.283980   -0.997171  -42.030076
                -0.997693  -41.873029  -7.354683  47.089099   -24.542985 -151.013535 -24.703566 22.819784
                -7.357344  46.994913   -0.996284  -42.083500  -24.666341 22.813246   -24.866212 -151.692057
460.0000000000  -24.479975 -152.586157 -24.563812 21.832481   -1.043465  -42.568994  -7.230976  46.243384
                -24.607466 21.260080   -24.732426 -152.637505 -7.218976  46.377341   -1.032260  -42.848033
                -1.032862  -42.578069  -7.215271  46.412827   -24.496472 -152.269465 -24.608312 21.492328
                -7.217842  46.224117   -1.032202  -42.836388  -24.568132 21.423479   -24.781732 -152.564022
470.0000000000  -24.403601 -153.740457 -24.505597 20.362746   -1.079774  -43.377667  -7.096675  45.421077
                -24.561431 19.806278   -24.608379 -154.005616 -7.085123  45.573571   -1.067882  -43.674144
                -1.066904  -43.392424  -7.080436  45.598019   -24.428637 -153.713305 -24.538457 20.000359
                -7.083308  45.428034   -1.067086  -43.642301  -24.503479 19.970193   -24.697394 -153.599556
480.0000000000  -24.350577 -154.882868 -24.471319 18.856977   -1.114283  -44.159437  -6.966163  44.620092
                -24.519055 18.372448   -24.493585 -155.439803 -6.954697  44.783662   -1.102269  -44.491294
                -1.102339  -44.230999  -6.950397  44.751394   -24.365899 -155.296848 -24.499213 18.457557
                -6.952157  44.598321   -1.101660  -44.483900  -24.447035 18.511081   -24.602280 -154.788148
490.0000000000  -24.323981 -156.011533 -24.440076 17.537324   -1.148884  -44.981224  -6.837963  43.817866
                -24.492323 17.142943   -24.405099 -156.787297 -6.827940  43.975823   -1.136847  -45.301299
                -1.136677  -45.019965  -6.823019  43.964851   -24.331550 -156.714914 -24.446577 17.119851
                -6.824531  43.809898   -1.136153  -45.285194  -24.414658 17.169230   -24.543392 -155.724279
500.0000000000  -24.338625 -156.921345 -24.390472 16.444357   -1.183389  -45.758370  -6.714326  43.047854
                -24.450061 16.033792   -24.355529 -158.050903 -6.703861  43.209749   -1.172079  -46.075973
                -1.171248  -45.802776  -6.699439  43.192209   -24.325653 -158.267391 -24.402220 16.024923
                -6.700941  43.038472   -1.171269  -46.064544  -24.377226 15.987181   -24.520292 -156.800926
510.0000000000  -24.362504 -157.874552 -24.367938 15.373093   -1.218790  -46.530864  -6.594043  42.280070
                -24.399645 14.958782   -24.315365 -159.410072 -6.585427  42.440525   -1.207293  -46.852566
                -1.206769  -46.560887  -6.580561  42.437838   -24.336495 -159.607215 -24.365607 14.839327
                -6.581859  42.271424   -1.206230  -46.836318  -24.322744 14.903517   -24.493271 -157.897777
520.0000000000  -24.367683 -158.889153 -24.314953 14.302920   -1.254206  -47.317694  -6.478574  41.493791
                -24.355456 13.771835   -24.278639 -160.689635 -6.470109  41.662259   -1.243062  -47.647164
                -1.242133  -47.352290  -6.466906  41.661133   -24.325592 -160.987455 -24.325546 13.642909
                -6.465637  41.487903   -1.242578  -47.631167  -24.278749 13.756345   -24.461144 -158.869032
530.0000000000  -24.373363 -159.861488 -24.252946 12.994721   -1.289739  -48.110210  -6.365503  40.699327
                -24.287340 12.485438   -24.219591 -161.894279 -6.358099  40.873781   -1.278802  -48.437071
                -1.277503  -48.151117  -6.355148  40.862692   -24.298897 -162.416431 -24.271540 12.207495
                -6.353327  40.688284   -1.277336  -48.430578  -24.225718 12.369756   -24.427066 -159.971931
540.0000000000  -24.374864 -160.842473 -24.194619 11.610502   -1.323738  -48.877013  -6.255650  39.915378
                -24.224494 11.128556   -24.167856 -163.119235 -6.248562  40.112449   -1.314015  -49.223540
                -1.310878  -48.939437  -6.245993  40.074776   -24.262438 -163.814693 -24.211032 10.838126
                -6.243569  39.895640   -1.312074  -49.212316  -24.184512 10.960430   -24.392360 -160.962814
